
T0A28 000:001 SEGGER J-Link V4.86b Log File (0004ms, 0005ms total)
T0A28 000:001 DLL Compiled: Jun 27 2014 20:11:00 (0004ms, 0005ms total)
T0A28 000:001 Logging started @ 2019-10-13 15:18 (0004ms, 0005ms total)
T0A28 000:005 JLINK_SetWarnOutHandler(...) (0000ms, 0005ms total)
T0A28 000:005 JLINK_OpenEx(...)
Firmware: J-Link V9 compiled Aug 23 2018 09:45:44
Hardware: V9.40
S/N: 59400616
Feature(s): RDI, FlashBP, FlashDL, JFlash, GDB  returns O.K. (0274ms, 0279ms total)
T0A28 000:279 JLINK_GetEmuCaps()  returns 0xB9FF7BBF (0000ms, 0279ms total)
T0A28 000:279 JLINK_TIF_GetAvailable(...) (0001ms, 0280ms total)
T0A28 000:280 JLINK_SetErrorOutHandler(...) (0000ms, 0280ms total)
T0A28 000:280 JLINK_ExecCommand("ProjectFile = "D:\1\新建文件夹\光电四轮\car\展示\Projecct\MDK\JLinkSettings.ini"", ...)  returns 0x00 (0001ms, 0281ms total)
T0A28 000:303 JLINK_ExecCommand("Device = MK66FX1M0xxx18", ...)Device "MK66FX1M0XXX18" selected (1280 KB flash, 256 KB RAM).  returns 0x00 (0020ms, 0301ms total)
T0A28 000:323 JLINK_ExecCommand("DisableConnectionTimeout", ...)  returns 0x01 (0001ms, 0302ms total)
T0A28 000:324 JLINK_GetHardwareVersion()  returns 0x16F30 (0000ms, 0302ms total)
T0A28 000:324 JLINK_GetDLLVersion()  returns 48602 (0000ms, 0302ms total)
T0A28 000:324 JLINK_GetFirmwareString(...) (0000ms, 0302ms total)
T0A28 000:409 JLINK_GetDLLVersion()  returns 48602 (0000ms, 0302ms total)
T0A28 000:409 JLINK_GetCompileDateTime() (0000ms, 0302ms total)
T0A28 000:431 JLINK_GetFirmwareString(...) (0000ms, 0302ms total)
T0A28 000:457 JLINK_GetHardwareVersion()  returns 0x16F30 (0001ms, 0303ms total)
T0A28 000:499 JLINK_TIF_Select(JLINKARM_TIF_SWD)  returns 0x00 (0001ms, 0304ms total)
T0A28 000:500 JLINK_SetSpeed(5000) (0001ms, 0305ms total)
T0A28 000:501 JLINK_GetId() >0x108 TIF>Found SWD-DP with ID 0x2BA01477 >0x0D TIF> >0x28 TIF> >0x0D TIF> >0x28 TIF> >0x0D TIF> >0x21 TIF> >0x0D TIF> >0x28 TIF> >0x0D TIF> >0x21 TIF> >0x0D TIF> >0x21 TIF> >0x0D TIF> >0x21 TIF> >0x0D TIF> >0x21 TIF> >0x0D TIF> >0x21 TIF> >0x0D TIF> >0x21 TIF> >0x0D TIF> >0x21 TIF> >0x0D TIF> >0x21 TIF> >0x0D TIF> >0x21 TIF> >0x0D TIF> >0x21 TIF> >0x0D TIF> >0x28 TIF> >0x0D TIF> >0x28 TIF> >0x0D TIF> >0x28 TIF> >0x0D TIF> >0x28 TIF> >0x0D TIF> >0x28 TIF> >0x0D TIF>
 >0x28 TIF> >0x0D TIF> >0x28 TIF> >0x0D TIF> >0x21 TIF> >0x0D TIF> >0x21 TIF> >0x0D TIF> >0x28 TIF> >0x108 TIF>Found SWD-DP with ID 0x2BA01477 >0x0D TIF> >0x21 TIF> >0x0D TIF> >0x28 TIF> >0x0D TIF> >0x28 TIF> >0x0D TIF> >0x21 TIF> >0x0D TIF> >0x28 TIF> >0x0D TIF> >0x21 TIF> >0x0D TIF> >0x21 TIF> >0x0D TIF> >0x21 TIF> >0x0D TIF> >0x21 TIF> >0x0D TIF> >0x28 TIF> >0x0D TIF> >0x28 TIF> >0x0D TIF> >0x21 TIF> >0x0D TIF> >0x28 TIF> >0x0D TIF> >0x28 TIF> >0x0D TIF> >0x28 TIF> >0x0D TIF> >0x21 TIF> >0x0D TIF>
 >0x21 TIF> >0x0D TIF> >0x28 TIF> >0x0D TIF> >0x21 TIF> >0x0D TIF> >0x21 TIF>Found Cortex-M4 r0p1, Little endian. -- CPU_WriteMem(4 bytes @ 0xE0002000) -- CPU_ReadMem(4 bytes @ 0xE000EDF0) -- CPU_ReadMem(4 bytes @ 0xE0002000)FPUnit: 6 code (BP) slots and 2 literal slots -- CPU_ReadMem(4 bytes @ 0xE000EDFC) -- CPU_WriteMem(4 bytes @ 0xE000EDFC) -- CPU_ReadMem(4 bytes @ 0xE0001000) -- CPU_WriteMem(4 bytes @ 0xE0001000) -- CPU_ReadMem(4 bytes @ 0xE00FF010)TPIU fitted. -- CPU_ReadMem(4 bytes @ 0xE00FF014)
ETM fitted. -- CPU_ReadMem(4 bytes @ 0xE00FF018) -- CPU_ReadMem(4 bytes @ 0xE0042FE0) -- CPU_ReadMem(4 bytes @ 0xE0042FE4)ETB present. -- CPU_ReadMem(4 bytes @ 0xE00FF01C) -- CPU_ReadMem(4 bytes @ 0xE0043FE0) -- CPU_ReadMem(4 bytes @ 0xE0043FE4)CSTF present. -- CPU_ReadMem(4 bytes @ 0xE00FF020) -- CPU_ReadMem(2 bytes @ 0x40052000) >0x0D TIF> >0x21 TIF>  returns 0x2BA01477 (0074ms, 0379ms total)
T0A28 000:575 JLINK_GetDLLVersion()  returns 48602 (0000ms, 0379ms total)
T0A28 000:575 JLINK_CORE_GetFound()  returns 0xE0000FF (0000ms, 0379ms total)
T0A28 000:579 JLINK_GetDebugInfo(0x100) -- Value=0xE00FF003  returns 0x00 (0000ms, 0379ms total)
T0A28 000:579 JLINK_GetDebugInfo(0x101)  returns 0xFFFFFFFF (0000ms, 0379ms total)
T0A28 000:579 JLINK_ReadMemEx(0xE0041FF0, 0x0010 Bytes, ..., AccessWidth = 33554436) -- CPU is running -- CPU_ReadMem(16 bytes @ 0xE0041FF0) - Data: 0D 00 00 00 90 00 00 00 05 00 00 00 B1 00 00 00  returns 0x10 (0001ms, 0380ms total)
T0A28 000:580 JLINK_GetDebugInfo(0x102)  returns 0xFFFFFFFF (0000ms, 0380ms total)
T0A28 000:580 JLINK_GetDebugInfo(0x103)  returns 0xFFFFFFFF (0000ms, 0380ms total)
T0A28 000:580 JLINK_ReadMemEx(0xE0040FF0, 0x0010 Bytes, ..., AccessWidth = 33554436) -- CPU is running -- CPU_ReadMem(16 bytes @ 0xE0040FF0) - Data: 0D 00 00 00 90 00 00 00 05 00 00 00 B1 00 00 00  returns 0x10 (0000ms, 0380ms total)
T0A28 000:580 JLINK_GetDebugInfo(0x104)  returns 0xFFFFFFFF (0000ms, 0380ms total)
T0A28 000:580 JLINK_GetDebugInfo(0x105)  returns 0xFFFFFFFF (0000ms, 0380ms total)
T0A28 000:580 JLINK_GetDebugInfo(0x106)  returns 0xFFFFFFFF (0000ms, 0380ms total)
T0A28 000:580 JLINK_GetDebugInfo(0x107)  returns 0xFFFFFFFF (0000ms, 0380ms total)
T0A28 000:580 JLINK_GetDebugInfo(0x10C)  returns 0xFFFFFFFF (0000ms, 0380ms total)
T0A28 000:580 JLINK_ReadMemU32(0xE000EF40, 0x0001 Items, ...) -- CPU is running -- CPU_ReadMem(4 bytes @ 0xE000EF40) - Data: 21 00 11 10  returns 0x01 (0001ms, 0381ms total)
T0A28 000:581 JLINK_ReadMemU32(0xE000EF44, 0x0001 Items, ...) -- CPU is running -- CPU_ReadMem(4 bytes @ 0xE000EF44) - Data: 11 00 00 11  returns 0x01 (0000ms, 0381ms total)
T0A28 000:581 JLINK_ReadMemU32(0xE000ED00, 0x0001 Items, ...) -- CPU is running -- CPU_ReadMem(4 bytes @ 0xE000ED00) - Data: 41 C2 0F 41  returns 0x01 (0000ms, 0381ms total)
T0A28 000:581 JLINK_GetDebugInfo(0x10F)  returns 0xFFFFFFFF (0000ms, 0381ms total)
T0A28 000:581 JLINK_SetResetType(JLINKARM_RESET_TYPE_NORMAL)  returns JLINKARM_RESET_TYPE_SOFT (0000ms, 0381ms total)
T0A28 000:581 JLINK_Reset() -- CPU is running -- CPU_WriteMem(4 bytes @ 0xE000EDF0) -- CPU is running -- CPU_WriteMem(4 bytes @ 0xE000EDFC) >0x35 TIF> -- CPU is running -- CPU_WriteMem(4 bytes @ 0xE000ED0C) -- CPU is running -- CPU_ReadMem(4 bytes @ 0xE000EDF0) -- CPU is running -- CPU_ReadMem(4 bytes @ 0xE000EDF0) -- CPU is running -- CPU_WriteMem(4 bytes @ 0xE000EDF0) -- CPU is running -- CPU_WriteMem(4 bytes @ 0xE000EDFC) -- CPU is running -- CPU_ReadMem(4 bytes @ 0xE000EDF0)
 -- CPU_ReadMem(8 bytes @ 0x20000000) -- CPU_WriteMem(8 bytes @ 0x20000000) -- CPU_WriteMem(8 bytes @ 0x20000000) -- CPU_WriteMem(4 bytes @ 0xE0002000) -- CPU_ReadMem(4 bytes @ 0xE000EDFC) -- CPU_ReadMem(4 bytes @ 0xE0001000) (0020ms, 0401ms total)
T0A28 000:601 JLINK_Halt()  returns 0x00 (0000ms, 0401ms total)
T0A28 000:601 JLINK_ReadMemU32(0xE000EDF0, 0x0001 Items, ...) -- CPU_ReadMem(4 bytes @ 0xE000EDF0) - Data: 03 00 03 00  returns 0x01 (0000ms, 0401ms total)
T0A28 000:601 JLINK_WriteU32(0xE000EDF0, 0xA05F0003) -- CPU_WriteMem(4 bytes @ 0xE000EDF0)  returns 0x00 (0000ms, 0401ms total)
T0A28 000:601 JLINK_WriteU32(0xE000EDFC, 0x01000000) -- CPU_WriteMem(4 bytes @ 0xE000EDFC)  returns 0x00 (0000ms, 0401ms total)
T0A28 000:613 JLINK_GetHWStatus(...)  returns 0x00 (0000ms, 0401ms total)
T0A28 000:624 JLINK_GetNumBPUnits(Type = 0xFFFFFF00)  returns 0x06 (0001ms, 0402ms total)
T0A28 000:625 JLINK_GetNumBPUnits(Type = 0xF0)  returns 0x2000 (0000ms, 0402ms total)
T0A28 000:625 JLINK_GetNumWPUnits()  returns 0x04 (0000ms, 0402ms total)
T0A28 000:638 JLINK_GetSpeed()  returns 0xFA0 (0000ms, 0402ms total)
T0A28 000:644 JLINK_ReadMemU32(0xE000E004, 0x0001 Items, ...) -- CPU_ReadMem(4 bytes @ 0xE000E004) - Data: 03 00 00 00  returns 0x01 (0001ms, 0403ms total)
T0A28 000:645 JLINK_ReadMemU32(0xE000E004, 0x0001 Items, ...) -- CPU_ReadMem(4 bytes @ 0xE000E004) - Data: 03 00 00 00  returns 0x01 (0000ms, 0403ms total)
T0A28 000:645 JLINK_WriteMemEx(0xE0001000, 0x001C Bytes, ..., AccessWidth = 33554436) - Data: 01 00 00 00 00 00 00 00 00 00 00 00 00 00 00 00 ... -- CPU_WriteMem(28 bytes @ 0xE0001000)  returns 0x1C (0001ms, 0404ms total)
T0A28 000:646 JLINK_Halt()  returns 0x00 (0000ms, 0404ms total)
T0A28 000:646 JLINK_IsHalted()  returns TRUE (0000ms, 0404ms total)
T0A28 000:651 JLINK_WriteMem(0x20000000, 0x0440 Bytes, ...) - Data: 00 BE 0A E0 0D 78 2D 06 68 40 08 24 40 00 00 D3 ... -- CPU_WriteMem(1088 bytes @ 0x20000000)  returns 0x440 (0004ms, 0408ms total)
T0A28 000:655 JLINK_WriteReg(R0, 0x00000000)  returns 0x00 (0000ms, 0408ms total)
T0A28 000:655 JLINK_WriteReg(R1, 0x00B71B00)  returns 0x00 (0000ms, 0408ms total)
T0A28 000:655 JLINK_WriteReg(R2, 0x00000001)  returns 0x00 (0000ms, 0408ms total)
T0A28 000:655 JLINK_WriteReg(R3, 0x00000000)  returns 0x00 (0000ms, 0408ms total)
T0A28 000:655 JLINK_WriteReg(R4, 0x00000000)  returns 0x00 (0000ms, 0408ms total)
T0A28 000:655 JLINK_WriteReg(R5, 0x00000000)  returns 0x00 (0000ms, 0408ms total)
T0A28 000:655 JLINK_WriteReg(R6, 0x00000000)  returns 0x00 (0000ms, 0408ms total)
T0A28 000:655 JLINK_WriteReg(R7, 0x00000000)  returns 0x00 (0000ms, 0408ms total)
T0A28 000:655 JLINK_WriteReg(R8, 0x00000000)  returns 0x00 (0000ms, 0408ms total)
T0A28 000:655 JLINK_WriteReg(R9, 0x20000438)  returns 0x00 (0000ms, 0408ms total)
T0A28 000:655 JLINK_WriteReg(R10, 0x00000000)  returns 0x00 (0000ms, 0408ms total)
T0A28 000:655 JLINK_WriteReg(R11, 0x00000000)  returns 0x00 (0000ms, 0408ms total)
T0A28 000:655 JLINK_WriteReg(R12, 0x00000000)  returns 0x00 (0000ms, 0408ms total)
T0A28 000:655 JLINK_WriteReg(R13 (SP), 0x20001000)  returns 0x00 (0000ms, 0408ms total)
T0A28 000:655 JLINK_WriteReg(R14, 0x20000001)  returns 0x00 (0000ms, 0408ms total)
T0A28 000:655 JLINK_WriteReg(R15 (PC), 0x20000020)  returns 0x00 (0000ms, 0408ms total)
T0A28 000:655 JLINK_WriteReg(XPSR, 0x01000000)  returns 0x00 (0000ms, 0408ms total)
T0A28 000:655 JLINK_WriteReg(MSP, 0x20001000)  returns 0x00 (0000ms, 0408ms total)
T0A28 000:655 JLINK_WriteReg(PSP, 0x20001000)  returns 0x00 (0001ms, 0409ms total)
T0A28 000:656 JLINK_WriteReg(CFBP, 0x00000000)  returns 0x00 (0000ms, 0409ms total)
T0A28 000:656 JLINK_SetBPEx(Addr = 0x20000000, Type = 0xFFFFFFF2) -- CPU_ReadMem(2 bytes @ 0x20000000)  returns 0x00000001 (0000ms, 0409ms total)
T0A28 000:656 JLINK_Go() -- CPU_WriteMem(2 bytes @ 0x20000000) -- CPU_WriteMem(4 bytes @ 0xE0002008) -- CPU_WriteMem(4 bytes @ 0xE000200C) -- CPU_WriteMem(4 bytes @ 0xE0002010) -- CPU_WriteMem(4 bytes @ 0xE0002014) -- CPU_WriteMem(4 bytes @ 0xE0002018) -- CPU_WriteMem(4 bytes @ 0xE000201C) -- CPU_WriteMem(4 bytes @ 0xE0001004) (0003ms, 0412ms total)
T0A28 000:659 JLINK_IsHalted() -- CPU_ReadMem(2 bytes @ 0x20000000)  returns TRUE (0002ms, 0414ms total)
T0A28 000:661 JLINK_ReadReg(R15 (PC))  returns 0x20000000 (0000ms, 0412ms total)
T0A28 000:661 JLINK_ClrBPEx(BPHandle = 0x00000001)  returns 0x00 (0000ms, 0412ms total)
T0A28 000:661 JLINK_ReadReg(R0)  returns 0x00000000 (0000ms, 0412ms total)
T0A28 000:661 JLINK_WriteReg(R0, 0x00000000)  returns 0x00 (0000ms, 0412ms total)
T0A28 000:661 JLINK_WriteReg(R1, 0x00001000)  returns 0x00 (0000ms, 0412ms total)
T0A28 000:661 JLINK_WriteReg(R2, 0x000000FF)  returns 0x00 (0000ms, 0412ms total)
T0A28 000:661 JLINK_WriteReg(R3, 0x00000000)  returns 0x00 (0000ms, 0412ms total)
T0A28 000:661 JLINK_WriteReg(R4, 0x00000000)  returns 0x00 (0000ms, 0412ms total)
T0A28 000:661 JLINK_WriteReg(R5, 0x00000000)  returns 0x00 (0000ms, 0412ms total)
T0A28 000:661 JLINK_WriteReg(R6, 0x00000000)  returns 0x00 (0000ms, 0412ms total)
T0A28 000:661 JLINK_WriteReg(R7, 0x00000000)  returns 0x00 (0000ms, 0412ms total)
T0A28 000:661 JLINK_WriteReg(R8, 0x00000000)  returns 0x00 (0000ms, 0412ms total)
T0A28 000:661 JLINK_WriteReg(R9, 0x20000438)  returns 0x00 (0000ms, 0412ms total)
T0A28 000:661 JLINK_WriteReg(R10, 0x00000000)  returns 0x00 (0000ms, 0412ms total)
T0A28 000:661 JLINK_WriteReg(R11, 0x00000000)  returns 0x00 (0001ms, 0413ms total)
T0A28 000:662 JLINK_WriteReg(R12, 0x00000000)  returns 0x00 (0000ms, 0413ms total)
T0A28 000:662 JLINK_WriteReg(R13 (SP), 0x20001000)  returns 0x00 (0000ms, 0413ms total)
T0A28 000:662 JLINK_WriteReg(R14, 0x20000001)  returns 0x00 (0000ms, 0413ms total)
T0A28 000:662 JLINK_WriteReg(R15 (PC), 0x20000074)  returns 0x00 (0000ms, 0413ms total)
T0A28 000:662 JLINK_WriteReg(XPSR, 0x01000000)  returns 0x00 (0000ms, 0413ms total)
T0A28 000:662 JLINK_WriteReg(MSP, 0x20001000)  returns 0x00 (0000ms, 0413ms total)
T0A28 000:662 JLINK_WriteReg(PSP, 0x20001000)  returns 0x00 (0000ms, 0413ms total)
T0A28 000:662 JLINK_WriteReg(CFBP, 0x00000000)  returns 0x00 (0000ms, 0413ms total)
T0A28 000:662 JLINK_SetBPEx(Addr = 0x20000000, Type = 0xFFFFFFF2)  returns 0x00000002 (0000ms, 0413ms total)
T0A28 000:662 JLINK_Go() (0001ms, 0414ms total)
T0A28 000:663 JLINK_IsHalted() -- CPU_ReadMem(2 bytes @ 0x20000000)  returns TRUE (0003ms, 0417ms total)
T0A28 000:666 JLINK_ReadReg(R15 (PC))  returns 0x20000000 (0000ms, 0414ms total)
T0A28 000:666 JLINK_ClrBPEx(BPHandle = 0x00000002)  returns 0x00 (0000ms, 0414ms total)
T0A28 000:666 JLINK_ReadReg(R0)  returns 0x00000001 (0000ms, 0414ms total)
T0A28 000:666 JLINK_WriteReg(R0, 0x00000000)  returns 0x00 (0000ms, 0414ms total)
T0A28 000:666 JLINK_WriteReg(R1, 0x00001000)  returns 0x00 (0000ms, 0414ms total)
T0A28 000:666 JLINK_WriteReg(R2, 0x000000FF)  returns 0x00 (0000ms, 0414ms total)
T0A28 000:666 JLINK_WriteReg(R3, 0x00000000)  returns 0x00 (0000ms, 0414ms total)
T0A28 000:666 JLINK_WriteReg(R4, 0x00000000)  returns 0x00 (0000ms, 0414ms total)
T0A28 000:666 JLINK_WriteReg(R5, 0x00000000)  returns 0x00 (0000ms, 0414ms total)
T0A28 000:666 JLINK_WriteReg(R6, 0x00000000)  returns 0x00 (0000ms, 0414ms total)
T0A28 000:666 JLINK_WriteReg(R7, 0x00000000)  returns 0x00 (0000ms, 0414ms total)
T0A28 000:666 JLINK_WriteReg(R8, 0x00000000)  returns 0x00 (0000ms, 0414ms total)
T0A28 000:666 JLINK_WriteReg(R9, 0x20000438)  returns 0x00 (0000ms, 0414ms total)
T0A28 000:666 JLINK_WriteReg(R10, 0x00000000)  returns 0x00 (0000ms, 0414ms total)
T0A28 000:666 JLINK_WriteReg(R11, 0x00000000)  returns 0x00 (0000ms, 0414ms total)
T0A28 000:666 JLINK_WriteReg(R12, 0x00000000)  returns 0x00 (0000ms, 0414ms total)
T0A28 000:666 JLINK_WriteReg(R13 (SP), 0x20001000)  returns 0x00 (0000ms, 0414ms total)
T0A28 000:666 JLINK_WriteReg(R14, 0x20000001)  returns 0x00 (0000ms, 0414ms total)
T0A28 000:666 JLINK_WriteReg(R15 (PC), 0x200000CA)  returns 0x00 (0000ms, 0414ms total)
T0A28 000:666 JLINK_WriteReg(XPSR, 0x01000000)  returns 0x00 (0000ms, 0414ms total)
T0A28 000:666 JLINK_WriteReg(MSP, 0x20001000)  returns 0x00 (0000ms, 0414ms total)
T0A28 000:666 JLINK_WriteReg(PSP, 0x20001000)  returns 0x00 (0000ms, 0414ms total)
T0A28 000:666 JLINK_WriteReg(CFBP, 0x00000000)  returns 0x00 (0000ms, 0414ms total)
T0A28 000:666 JLINK_SetBPEx(Addr = 0x20000000, Type = 0xFFFFFFF2)  returns 0x00000003 (0000ms, 0414ms total)
T0A28 000:666 JLINK_Go() (0002ms, 0416ms total)
T0A28 000:668 JLINK_IsHalted()  returns FALSE (0001ms, 0417ms total)
T0A28 000:708 JLINK_IsHalted() -- CPU_ReadMem(2 bytes @ 0x20000000)  returns TRUE (0002ms, 0418ms total)
T0A28 000:710 JLINK_ReadReg(R15 (PC))  returns 0x20000000 (0000ms, 0416ms total)
T0A28 000:710 JLINK_ClrBPEx(BPHandle = 0x00000003)  returns 0x00 (0000ms, 0416ms total)
T0A28 000:710 JLINK_ReadReg(R0)  returns 0x00000000 (0000ms, 0416ms total)
T0A28 000:711 JLINK_WriteReg(R0, 0x00001000)  returns 0x00 (0000ms, 0416ms total)
T0A28 000:711 JLINK_WriteReg(R1, 0x00001000)  returns 0x00 (0000ms, 0416ms total)
T0A28 000:711 JLINK_WriteReg(R2, 0x000000FF)  returns 0x00 (0000ms, 0416ms total)
T0A28 000:711 JLINK_WriteReg(R3, 0x00000000)  returns 0x00 (0000ms, 0416ms total)
T0A28 000:711 JLINK_WriteReg(R4, 0x00000000)  returns 0x00 (0000ms, 0416ms total)
T0A28 000:711 JLINK_WriteReg(R5, 0x00000000)  returns 0x00 (0000ms, 0416ms total)
T0A28 000:711 JLINK_WriteReg(R6, 0x00000000)  returns 0x00 (0001ms, 0417ms total)
T0A28 000:712 JLINK_WriteReg(R7, 0x00000000)  returns 0x00 (0000ms, 0417ms total)
T0A28 000:712 JLINK_WriteReg(R8, 0x00000000)  returns 0x00 (0000ms, 0417ms total)
T0A28 000:712 JLINK_WriteReg(R9, 0x20000438)  returns 0x00 (0000ms, 0417ms total)
T0A28 000:712 JLINK_WriteReg(R10, 0x00000000)  returns 0x00 (0000ms, 0417ms total)
T0A28 000:712 JLINK_WriteReg(R11, 0x00000000)  returns 0x00 (0000ms, 0417ms total)
T0A28 000:712 JLINK_WriteReg(R12, 0x00000000)  returns 0x00 (0000ms, 0417ms total)
T0A28 000:712 JLINK_WriteReg(R13 (SP), 0x20001000)  returns 0x00 (0000ms, 0417ms total)
T0A28 000:712 JLINK_WriteReg(R14, 0x20000001)  returns 0x00 (0000ms, 0417ms total)
T0A28 000:712 JLINK_WriteReg(R15 (PC), 0x20000074)  returns 0x00 (0000ms, 0417ms total)
T0A28 000:712 JLINK_WriteReg(XPSR, 0x01000000)  returns 0x00 (0000ms, 0417ms total)
T0A28 000:712 JLINK_WriteReg(MSP, 0x20001000)  returns 0x00 (0000ms, 0417ms total)
T0A28 000:712 JLINK_WriteReg(PSP, 0x20001000)  returns 0x00 (0000ms, 0417ms total)
T0A28 000:712 JLINK_WriteReg(CFBP, 0x00000000)  returns 0x00 (0000ms, 0417ms total)
T0A28 000:712 JLINK_SetBPEx(Addr = 0x20000000, Type = 0xFFFFFFF2)  returns 0x00000004 (0000ms, 0417ms total)
T0A28 000:712 JLINK_Go() (0001ms, 0418ms total)
T0A28 000:713 JLINK_IsHalted() -- CPU_ReadMem(2 bytes @ 0x20000000)  returns TRUE (0003ms, 0421ms total)
T0A28 000:716 JLINK_ReadReg(R15 (PC))  returns 0x20000000 (0000ms, 0418ms total)
T0A28 000:716 JLINK_ClrBPEx(BPHandle = 0x00000004)  returns 0x00 (0000ms, 0418ms total)
T0A28 000:716 JLINK_ReadReg(R0)  returns 0x00000001 (0000ms, 0418ms total)
T0A28 000:716 JLINK_WriteReg(R0, 0x00001000)  returns 0x00 (0000ms, 0418ms total)
T0A28 000:716 JLINK_WriteReg(R1, 0x00001000)  returns 0x00 (0000ms, 0418ms total)
T0A28 000:716 JLINK_WriteReg(R2, 0x000000FF)  returns 0x00 (0000ms, 0418ms total)
T0A28 000:716 JLINK_WriteReg(R3, 0x00000000)  returns 0x00 (0000ms, 0418ms total)
T0A28 000:716 JLINK_WriteReg(R4, 0x00000000)  returns 0x00 (0000ms, 0418ms total)
T0A28 000:716 JLINK_WriteReg(R5, 0x00000000)  returns 0x00 (0000ms, 0418ms total)
T0A28 000:716 JLINK_WriteReg(R6, 0x00000000)  returns 0x00 (0000ms, 0418ms total)
T0A28 000:716 JLINK_WriteReg(R7, 0x00000000)  returns 0x00 (0001ms, 0419ms total)
T0A28 000:717 JLINK_WriteReg(R8, 0x00000000)  returns 0x00 (0000ms, 0419ms total)
T0A28 000:717 JLINK_WriteReg(R9, 0x20000438)  returns 0x00 (0000ms, 0419ms total)
T0A28 000:717 JLINK_WriteReg(R10, 0x00000000)  returns 0x00 (0000ms, 0419ms total)
T0A28 000:717 JLINK_WriteReg(R11, 0x00000000)  returns 0x00 (0000ms, 0419ms total)
T0A28 000:717 JLINK_WriteReg(R12, 0x00000000)  returns 0x00 (0000ms, 0419ms total)
T0A28 000:717 JLINK_WriteReg(R13 (SP), 0x20001000)  returns 0x00 (0000ms, 0419ms total)
T0A28 000:717 JLINK_WriteReg(R14, 0x20000001)  returns 0x00 (0000ms, 0419ms total)
T0A28 000:717 JLINK_WriteReg(R15 (PC), 0x200000CA)  returns 0x00 (0000ms, 0419ms total)
T0A28 000:717 JLINK_WriteReg(XPSR, 0x01000000)  returns 0x00 (0000ms, 0419ms total)
T0A28 000:717 JLINK_WriteReg(MSP, 0x20001000)  returns 0x00 (0000ms, 0419ms total)
T0A28 000:717 JLINK_WriteReg(PSP, 0x20001000)  returns 0x00 (0000ms, 0419ms total)
T0A28 000:717 JLINK_WriteReg(CFBP, 0x00000000)  returns 0x00 (0000ms, 0419ms total)
T0A28 000:717 JLINK_SetBPEx(Addr = 0x20000000, Type = 0xFFFFFFF2)  returns 0x00000005 (0000ms, 0419ms total)
T0A28 000:717 JLINK_Go() (0001ms, 0420ms total)
T0A28 000:718 JLINK_IsHalted()  returns FALSE (0001ms, 0421ms total)
T0A28 000:721 JLINK_IsHalted()  returns FALSE (0000ms, 0420ms total)
T0A28 000:723 JLINK_IsHalted()  returns FALSE (0000ms, 0420ms total)
T0A28 000:725 JLINK_IsHalted()  returns FALSE (0000ms, 0420ms total)
T0A28 000:727 JLINK_IsHalted() -- CPU_ReadMem(2 bytes @ 0x20000000)  returns TRUE (0002ms, 0422ms total)
T0A28 000:729 JLINK_ReadReg(R15 (PC))  returns 0x20000000 (0000ms, 0420ms total)
T0A28 000:729 JLINK_ClrBPEx(BPHandle = 0x00000005)  returns 0x00 (0000ms, 0420ms total)
T0A28 000:729 JLINK_ReadReg(R0)  returns 0x00000000 (0000ms, 0420ms total)
T0A28 000:731 JLINK_WriteReg(R0, 0x00002000)  returns 0x00 (0001ms, 0422ms total)
T0A28 000:732 JLINK_WriteReg(R1, 0x00001000)  returns 0x00 (0000ms, 0422ms total)
T0A28 000:732 JLINK_WriteReg(R2, 0x000000FF)  returns 0x00 (0000ms, 0422ms total)
T0A28 000:732 JLINK_WriteReg(R3, 0x00000000)  returns 0x00 (0000ms, 0422ms total)
T0A28 000:732 JLINK_WriteReg(R4, 0x00000000)  returns 0x00 (0000ms, 0422ms total)
T0A28 000:732 JLINK_WriteReg(R5, 0x00000000)  returns 0x00 (0000ms, 0422ms total)
T0A28 000:732 JLINK_WriteReg(R6, 0x00000000)  returns 0x00 (0000ms, 0422ms total)
T0A28 000:732 JLINK_WriteReg(R7, 0x00000000)  returns 0x00 (0000ms, 0422ms total)
T0A28 000:732 JLINK_WriteReg(R8, 0x00000000)  returns 0x00 (0000ms, 0422ms total)
T0A28 000:732 JLINK_WriteReg(R9, 0x20000438)  returns 0x00 (0000ms, 0422ms total)
T0A28 000:732 JLINK_WriteReg(R10, 0x00000000)  returns 0x00 (0001ms, 0423ms total)
T0A28 000:733 JLINK_WriteReg(R11, 0x00000000)  returns 0x00 (0000ms, 0423ms total)
T0A28 000:733 JLINK_WriteReg(R12, 0x00000000)  returns 0x00 (0000ms, 0423ms total)
T0A28 000:733 JLINK_WriteReg(R13 (SP), 0x20001000)  returns 0x00 (0000ms, 0423ms total)
T0A28 000:733 JLINK_WriteReg(R14, 0x20000001)  returns 0x00 (0000ms, 0423ms total)
T0A28 000:733 JLINK_WriteReg(R15 (PC), 0x20000074)  returns 0x00 (0000ms, 0423ms total)
T0A28 000:733 JLINK_WriteReg(XPSR, 0x01000000)  returns 0x00 (0000ms, 0423ms total)
T0A28 000:733 JLINK_WriteReg(MSP, 0x20001000)  returns 0x00 (0000ms, 0423ms total)
T0A28 000:733 JLINK_WriteReg(PSP, 0x20001000)  returns 0x00 (0000ms, 0423ms total)
T0A28 000:733 JLINK_WriteReg(CFBP, 0x00000000)  returns 0x00 (0000ms, 0423ms total)
T0A28 000:733 JLINK_SetBPEx(Addr = 0x20000000, Type = 0xFFFFFFF2)  returns 0x00000006 (0000ms, 0423ms total)
T0A28 000:733 JLINK_Go() (0002ms, 0425ms total)
T0A28 000:735 JLINK_IsHalted() -- CPU_ReadMem(2 bytes @ 0x20000000)  returns TRUE (0002ms, 0427ms total)
T0A28 000:737 JLINK_ReadReg(R15 (PC))  returns 0x20000000 (0000ms, 0425ms total)
T0A28 000:737 JLINK_ClrBPEx(BPHandle = 0x00000006)  returns 0x00 (0001ms, 0426ms total)
T0A28 000:738 JLINK_ReadReg(R0)  returns 0x00000001 (0000ms, 0426ms total)
T0A28 000:738 JLINK_WriteReg(R0, 0x00002000)  returns 0x00 (0000ms, 0426ms total)
T0A28 000:738 JLINK_WriteReg(R1, 0x00001000)  returns 0x00 (0000ms, 0426ms total)
T0A28 000:738 JLINK_WriteReg(R2, 0x000000FF)  returns 0x00 (0000ms, 0426ms total)
T0A28 000:738 JLINK_WriteReg(R3, 0x00000000)  returns 0x00 (0000ms, 0426ms total)
T0A28 000:738 JLINK_WriteReg(R4, 0x00000000)  returns 0x00 (0000ms, 0426ms total)
T0A28 000:738 JLINK_WriteReg(R5, 0x00000000)  returns 0x00 (0000ms, 0426ms total)
T0A28 000:738 JLINK_WriteReg(R6, 0x00000000)  returns 0x00 (0000ms, 0426ms total)
T0A28 000:738 JLINK_WriteReg(R7, 0x00000000)  returns 0x00 (0000ms, 0426ms total)
T0A28 000:738 JLINK_WriteReg(R8, 0x00000000)  returns 0x00 (0000ms, 0426ms total)
T0A28 000:738 JLINK_WriteReg(R9, 0x20000438)  returns 0x00 (0001ms, 0427ms total)
T0A28 000:739 JLINK_WriteReg(R10, 0x00000000)  returns 0x00 (0000ms, 0427ms total)
T0A28 000:739 JLINK_WriteReg(R11, 0x00000000)  returns 0x00 (0000ms, 0427ms total)
T0A28 000:739 JLINK_WriteReg(R12, 0x00000000)  returns 0x00 (0000ms, 0427ms total)
T0A28 000:739 JLINK_WriteReg(R13 (SP), 0x20001000)  returns 0x00 (0000ms, 0427ms total)
T0A28 000:739 JLINK_WriteReg(R14, 0x20000001)  returns 0x00 (0000ms, 0427ms total)
T0A28 000:739 JLINK_WriteReg(R15 (PC), 0x200000CA)  returns 0x00 (0000ms, 0427ms total)
T0A28 000:739 JLINK_WriteReg(XPSR, 0x01000000)  returns 0x00 (0000ms, 0427ms total)
T0A28 000:739 JLINK_WriteReg(MSP, 0x20001000)  returns 0x00 (0000ms, 0427ms total)
T0A28 000:739 JLINK_WriteReg(PSP, 0x20001000)  returns 0x00 (0000ms, 0427ms total)
T0A28 000:739 JLINK_WriteReg(CFBP, 0x00000000)  returns 0x00 (0000ms, 0427ms total)
T0A28 000:739 JLINK_SetBPEx(Addr = 0x20000000, Type = 0xFFFFFFF2)  returns 0x00000007 (0001ms, 0428ms total)
T0A28 000:740 JLINK_Go() (0001ms, 0429ms total)
T0A28 000:741 JLINK_IsHalted()  returns FALSE (0000ms, 0429ms total)
T0A28 000:746 JLINK_IsHalted()  returns FALSE (0000ms, 0429ms total)
T0A28 000:748 JLINK_IsHalted()  returns FALSE (0000ms, 0429ms total)
T0A28 000:750 JLINK_IsHalted() -- CPU_ReadMem(2 bytes @ 0x20000000)  returns TRUE (0002ms, 0431ms total)
T0A28 000:752 JLINK_ReadReg(R15 (PC))  returns 0x20000000 (0000ms, 0429ms total)
T0A28 000:752 JLINK_ClrBPEx(BPHandle = 0x00000007)  returns 0x00 (0000ms, 0429ms total)
T0A28 000:752 JLINK_ReadReg(R0)  returns 0x00000000 (0000ms, 0429ms total)
T0A28 000:753 JLINK_WriteReg(R0, 0x00003000)  returns 0x00 (0000ms, 0429ms total)
T0A28 000:753 JLINK_WriteReg(R1, 0x00001000)  returns 0x00 (0000ms, 0429ms total)
T0A28 000:753 JLINK_WriteReg(R2, 0x000000FF)  returns 0x00 (0000ms, 0429ms total)
T0A28 000:753 JLINK_WriteReg(R3, 0x00000000)  returns 0x00 (0000ms, 0429ms total)
T0A28 000:753 JLINK_WriteReg(R4, 0x00000000)  returns 0x00 (0000ms, 0429ms total)
T0A28 000:753 JLINK_WriteReg(R5, 0x00000000)  returns 0x00 (0000ms, 0429ms total)
T0A28 000:753 JLINK_WriteReg(R6, 0x00000000)  returns 0x00 (0000ms, 0429ms total)
T0A28 000:753 JLINK_WriteReg(R7, 0x00000000)  returns 0x00 (0000ms, 0429ms total)
T0A28 000:753 JLINK_WriteReg(R8, 0x00000000)  returns 0x00 (0000ms, 0429ms total)
T0A28 000:753 JLINK_WriteReg(R9, 0x20000438)  returns 0x00 (0000ms, 0429ms total)
T0A28 000:753 JLINK_WriteReg(R10, 0x00000000)  returns 0x00 (0000ms, 0429ms total)
T0A28 000:753 JLINK_WriteReg(R11, 0x00000000)  returns 0x00 (0000ms, 0429ms total)
T0A28 000:753 JLINK_WriteReg(R12, 0x00000000)  returns 0x00 (0000ms, 0429ms total)
T0A28 000:753 JLINK_WriteReg(R13 (SP), 0x20001000)  returns 0x00 (0000ms, 0429ms total)
T0A28 000:753 JLINK_WriteReg(R14, 0x20000001)  returns 0x00 (0000ms, 0429ms total)
T0A28 000:753 JLINK_WriteReg(R15 (PC), 0x20000074)  returns 0x00 (0000ms, 0429ms total)
T0A28 000:753 JLINK_WriteReg(XPSR, 0x01000000)  returns 0x00 (0000ms, 0429ms total)
T0A28 000:753 JLINK_WriteReg(MSP, 0x20001000)  returns 0x00 (0001ms, 0430ms total)
T0A28 000:754 JLINK_WriteReg(PSP, 0x20001000)  returns 0x00 (0000ms, 0430ms total)
T0A28 000:754 JLINK_WriteReg(CFBP, 0x00000000)  returns 0x00 (0000ms, 0430ms total)
T0A28 000:754 JLINK_SetBPEx(Addr = 0x20000000, Type = 0xFFFFFFF2)  returns 0x00000008 (0000ms, 0430ms total)
T0A28 000:754 JLINK_Go() (0001ms, 0431ms total)
T0A28 000:755 JLINK_IsHalted() -- CPU_ReadMem(2 bytes @ 0x20000000)  returns TRUE (0002ms, 0433ms total)
T0A28 000:757 JLINK_ReadReg(R15 (PC))  returns 0x20000000 (0000ms, 0431ms total)
T0A28 000:757 JLINK_ClrBPEx(BPHandle = 0x00000008)  returns 0x00 (0000ms, 0431ms total)
T0A28 000:757 JLINK_ReadReg(R0)  returns 0x00000001 (0000ms, 0431ms total)
T0A28 000:757 JLINK_WriteReg(R0, 0x00003000)  returns 0x00 (0000ms, 0431ms total)
T0A28 000:757 JLINK_WriteReg(R1, 0x00001000)  returns 0x00 (0000ms, 0431ms total)
T0A28 000:757 JLINK_WriteReg(R2, 0x000000FF)  returns 0x00 (0000ms, 0431ms total)
T0A28 000:757 JLINK_WriteReg(R3, 0x00000000)  returns 0x00 (0000ms, 0431ms total)
T0A28 000:757 JLINK_WriteReg(R4, 0x00000000)  returns 0x00 (0000ms, 0431ms total)
T0A28 000:757 JLINK_WriteReg(R5, 0x00000000)  returns 0x00 (0000ms, 0431ms total)
T0A28 000:757 JLINK_WriteReg(R6, 0x00000000)  returns 0x00 (0000ms, 0431ms total)
T0A28 000:757 JLINK_WriteReg(R7, 0x00000000)  returns 0x00 (0001ms, 0432ms total)
T0A28 000:758 JLINK_WriteReg(R8, 0x00000000)  returns 0x00 (0000ms, 0432ms total)
T0A28 000:758 JLINK_WriteReg(R9, 0x20000438)  returns 0x00 (0000ms, 0432ms total)
T0A28 000:758 JLINK_WriteReg(R10, 0x00000000)  returns 0x00 (0000ms, 0432ms total)
T0A28 000:758 JLINK_WriteReg(R11, 0x00000000)  returns 0x00 (0000ms, 0432ms total)
T0A28 000:758 JLINK_WriteReg(R12, 0x00000000)  returns 0x00 (0000ms, 0432ms total)
T0A28 000:758 JLINK_WriteReg(R13 (SP), 0x20001000)  returns 0x00 (0000ms, 0432ms total)
T0A28 000:758 JLINK_WriteReg(R14, 0x20000001)  returns 0x00 (0000ms, 0432ms total)
T0A28 000:758 JLINK_WriteReg(R15 (PC), 0x200000CA)  returns 0x00 (0000ms, 0432ms total)
T0A28 000:758 JLINK_WriteReg(XPSR, 0x01000000)  returns 0x00 (0000ms, 0432ms total)
T0A28 000:758 JLINK_WriteReg(MSP, 0x20001000)  returns 0x00 (0000ms, 0432ms total)
T0A28 000:758 JLINK_WriteReg(PSP, 0x20001000)  returns 0x00 (0000ms, 0432ms total)
T0A28 000:758 JLINK_WriteReg(CFBP, 0x00000000)  returns 0x00 (0000ms, 0432ms total)
T0A28 000:758 JLINK_SetBPEx(Addr = 0x20000000, Type = 0xFFFFFFF2)  returns 0x00000009 (0000ms, 0432ms total)
T0A28 000:758 JLINK_Go() (0001ms, 0433ms total)
T0A28 000:759 JLINK_IsHalted()  returns FALSE (0001ms, 0434ms total)
T0A28 000:761 JLINK_IsHalted()  returns FALSE (0000ms, 0433ms total)
T0A28 000:762 JLINK_IsHalted()  returns FALSE (0001ms, 0434ms total)
T0A28 000:764 JLINK_IsHalted()  returns FALSE (0001ms, 0434ms total)
T0A28 000:766 JLINK_IsHalted()  returns FALSE (0000ms, 0433ms total)
T0A28 000:768 JLINK_IsHalted() -- CPU_ReadMem(2 bytes @ 0x20000000)  returns TRUE (0002ms, 0435ms total)
T0A28 000:770 JLINK_ReadReg(R15 (PC))  returns 0x20000000 (0000ms, 0433ms total)
T0A28 000:770 JLINK_ClrBPEx(BPHandle = 0x00000009)  returns 0x00 (0000ms, 0433ms total)
T0A28 000:770 JLINK_ReadReg(R0)  returns 0x00000000 (0000ms, 0433ms total)
T0A28 000:770 JLINK_WriteReg(R0, 0x00004000)  returns 0x00 (0000ms, 0433ms total)
T0A28 000:770 JLINK_WriteReg(R1, 0x00001000)  returns 0x00 (0000ms, 0433ms total)
T0A28 000:770 JLINK_WriteReg(R2, 0x000000FF)  returns 0x00 (0000ms, 0433ms total)
T0A28 000:770 JLINK_WriteReg(R3, 0x00000000)  returns 0x00 (0000ms, 0433ms total)
T0A28 000:770 JLINK_WriteReg(R4, 0x00000000)  returns 0x00 (0000ms, 0433ms total)
T0A28 000:770 JLINK_WriteReg(R5, 0x00000000)  returns 0x00 (0000ms, 0433ms total)
T0A28 000:770 JLINK_WriteReg(R6, 0x00000000)  returns 0x00 (0000ms, 0433ms total)
T0A28 000:770 JLINK_WriteReg(R7, 0x00000000)  returns 0x00 (0000ms, 0433ms total)
T0A28 000:770 JLINK_WriteReg(R8, 0x00000000)  returns 0x00 (0000ms, 0433ms total)
T0A28 000:770 JLINK_WriteReg(R9, 0x20000438)  returns 0x00 (0000ms, 0433ms total)
T0A28 000:770 JLINK_WriteReg(R10, 0x00000000)  returns 0x00 (0000ms, 0433ms total)
T0A28 000:770 JLINK_WriteReg(R11, 0x00000000)  returns 0x00 (0000ms, 0433ms total)
T0A28 000:770 JLINK_WriteReg(R12, 0x00000000)  returns 0x00 (0000ms, 0433ms total)
T0A28 000:770 JLINK_WriteReg(R13 (SP), 0x20001000)  returns 0x00 (0002ms, 0435ms total)
T0A28 000:772 JLINK_WriteReg(R14, 0x20000001)  returns 0x00 (0000ms, 0435ms total)
T0A28 000:772 JLINK_WriteReg(R15 (PC), 0x20000074)  returns 0x00 (0000ms, 0435ms total)
T0A28 000:772 JLINK_WriteReg(XPSR, 0x01000000)  returns 0x00 (0000ms, 0435ms total)
T0A28 000:772 JLINK_WriteReg(MSP, 0x20001000)  returns 0x00 (0000ms, 0435ms total)
T0A28 000:772 JLINK_WriteReg(PSP, 0x20001000)  returns 0x00 (0000ms, 0435ms total)
T0A28 000:772 JLINK_WriteReg(CFBP, 0x00000000)  returns 0x00 (0000ms, 0435ms total)
T0A28 000:772 JLINK_SetBPEx(Addr = 0x20000000, Type = 0xFFFFFFF2)  returns 0x0000000A (0000ms, 0435ms total)
T0A28 000:772 JLINK_Go() (0001ms, 0436ms total)
T0A28 000:773 JLINK_IsHalted() -- CPU_ReadMem(2 bytes @ 0x20000000)  returns TRUE (0002ms, 0438ms total)
T0A28 000:775 JLINK_ReadReg(R15 (PC))  returns 0x20000000 (0000ms, 0436ms total)
T0A28 000:775 JLINK_ClrBPEx(BPHandle = 0x0000000A)  returns 0x00 (0000ms, 0436ms total)
T0A28 000:775 JLINK_ReadReg(R0)  returns 0x00000001 (0000ms, 0436ms total)
T0A28 000:775 JLINK_WriteReg(R0, 0x00004000)  returns 0x00 (0000ms, 0436ms total)
T0A28 000:775 JLINK_WriteReg(R1, 0x00001000)  returns 0x00 (0000ms, 0436ms total)
T0A28 000:775 JLINK_WriteReg(R2, 0x000000FF)  returns 0x00 (0000ms, 0436ms total)
T0A28 000:775 JLINK_WriteReg(R3, 0x00000000)  returns 0x00 (0000ms, 0436ms total)
T0A28 000:775 JLINK_WriteReg(R4, 0x00000000)  returns 0x00 (0000ms, 0436ms total)
T0A28 000:775 JLINK_WriteReg(R5, 0x00000000)  returns 0x00 (0000ms, 0436ms total)
T0A28 000:775 JLINK_WriteReg(R6, 0x00000000)  returns 0x00 (0001ms, 0437ms total)
T0A28 000:776 JLINK_WriteReg(R7, 0x00000000)  returns 0x00 (0000ms, 0437ms total)
T0A28 000:776 JLINK_WriteReg(R8, 0x00000000)  returns 0x00 (0000ms, 0437ms total)
T0A28 000:776 JLINK_WriteReg(R9, 0x20000438)  returns 0x00 (0000ms, 0437ms total)
T0A28 000:776 JLINK_WriteReg(R10, 0x00000000)  returns 0x00 (0000ms, 0437ms total)
T0A28 000:776 JLINK_WriteReg(R11, 0x00000000)  returns 0x00 (0000ms, 0437ms total)
T0A28 000:776 JLINK_WriteReg(R12, 0x00000000)  returns 0x00 (0000ms, 0437ms total)
T0A28 000:776 JLINK_WriteReg(R13 (SP), 0x20001000)  returns 0x00 (0000ms, 0437ms total)
T0A28 000:776 JLINK_WriteReg(R14, 0x20000001)  returns 0x00 (0000ms, 0437ms total)
T0A28 000:776 JLINK_WriteReg(R15 (PC), 0x200000CA)  returns 0x00 (0000ms, 0437ms total)
T0A28 000:776 JLINK_WriteReg(XPSR, 0x01000000)  returns 0x00 (0000ms, 0437ms total)
T0A28 000:776 JLINK_WriteReg(MSP, 0x20001000)  returns 0x00 (0000ms, 0437ms total)
T0A28 000:776 JLINK_WriteReg(PSP, 0x20001000)  returns 0x00 (0000ms, 0437ms total)
T0A28 000:776 JLINK_WriteReg(CFBP, 0x00000000)  returns 0x00 (0000ms, 0437ms total)
T0A28 000:776 JLINK_SetBPEx(Addr = 0x20000000, Type = 0xFFFFFFF2)  returns 0x0000000B (0001ms, 0438ms total)
T0A28 000:777 JLINK_Go() (0002ms, 0440ms total)
T0A28 000:779 JLINK_IsHalted()  returns FALSE (0001ms, 0441ms total)
T0A28 000:783 JLINK_IsHalted()  returns FALSE (0000ms, 0440ms total)
T0A28 000:785 JLINK_IsHalted()  returns FALSE (0000ms, 0440ms total)
T0A28 000:787 JLINK_IsHalted() -- CPU_ReadMem(2 bytes @ 0x20000000)  returns TRUE (0002ms, 0442ms total)
T0A28 000:789 JLINK_ReadReg(R15 (PC))  returns 0x20000000 (0000ms, 0440ms total)
T0A28 000:789 JLINK_ClrBPEx(BPHandle = 0x0000000B)  returns 0x00 (0000ms, 0440ms total)
T0A28 000:789 JLINK_ReadReg(R0)  returns 0x00000000 (0000ms, 0440ms total)
T0A28 000:790 JLINK_WriteReg(R0, 0x00005000)  returns 0x00 (0000ms, 0440ms total)
T0A28 000:790 JLINK_WriteReg(R1, 0x00001000)  returns 0x00 (0000ms, 0440ms total)
T0A28 000:790 JLINK_WriteReg(R2, 0x000000FF)  returns 0x00 (0000ms, 0440ms total)
T0A28 000:790 JLINK_WriteReg(R3, 0x00000000)  returns 0x00 (0000ms, 0440ms total)
T0A28 000:790 JLINK_WriteReg(R4, 0x00000000)  returns 0x00 (0000ms, 0440ms total)
T0A28 000:790 JLINK_WriteReg(R5, 0x00000000)  returns 0x00 (0000ms, 0440ms total)
T0A28 000:790 JLINK_WriteReg(R6, 0x00000000)  returns 0x00 (0000ms, 0440ms total)
T0A28 000:790 JLINK_WriteReg(R7, 0x00000000)  returns 0x00 (0000ms, 0440ms total)
T0A28 000:790 JLINK_WriteReg(R8, 0x00000000)  returns 0x00 (0000ms, 0440ms total)
T0A28 000:790 JLINK_WriteReg(R9, 0x20000438)  returns 0x00 (0000ms, 0440ms total)
T0A28 000:790 JLINK_WriteReg(R10, 0x00000000)  returns 0x00 (0000ms, 0440ms total)
T0A28 000:790 JLINK_WriteReg(R11, 0x00000000)  returns 0x00 (0000ms, 0440ms total)
T0A28 000:790 JLINK_WriteReg(R12, 0x00000000)  returns 0x00 (0000ms, 0440ms total)
T0A28 000:790 JLINK_WriteReg(R13 (SP), 0x20001000)  returns 0x00 (0000ms, 0440ms total)
T0A28 000:790 JLINK_WriteReg(R14, 0x20000001)  returns 0x00 (0001ms, 0441ms total)
T0A28 000:791 JLINK_WriteReg(R15 (PC), 0x20000074)  returns 0x00 (0000ms, 0441ms total)
T0A28 000:791 JLINK_WriteReg(XPSR, 0x01000000)  returns 0x00 (0000ms, 0441ms total)
T0A28 000:791 JLINK_WriteReg(MSP, 0x20001000)  returns 0x00 (0000ms, 0441ms total)
T0A28 000:791 JLINK_WriteReg(PSP, 0x20001000)  returns 0x00 (0000ms, 0441ms total)
T0A28 000:791 JLINK_WriteReg(CFBP, 0x00000000)  returns 0x00 (0000ms, 0441ms total)
T0A28 000:791 JLINK_SetBPEx(Addr = 0x20000000, Type = 0xFFFFFFF2)  returns 0x0000000C (0000ms, 0441ms total)
T0A28 000:791 JLINK_Go() (0001ms, 0442ms total)
T0A28 000:792 JLINK_IsHalted() -- CPU_ReadMem(2 bytes @ 0x20000000)  returns TRUE (0002ms, 0444ms total)
T0A28 000:794 JLINK_ReadReg(R15 (PC))  returns 0x20000000 (0001ms, 0443ms total)
T0A28 000:795 JLINK_ClrBPEx(BPHandle = 0x0000000C)  returns 0x00 (0000ms, 0443ms total)
T0A28 000:795 JLINK_ReadReg(R0)  returns 0x00000001 (0000ms, 0443ms total)
T0A28 000:795 JLINK_WriteReg(R0, 0x00005000)  returns 0x00 (0000ms, 0443ms total)
T0A28 000:795 JLINK_WriteReg(R1, 0x00001000)  returns 0x00 (0000ms, 0443ms total)
T0A28 000:795 JLINK_WriteReg(R2, 0x000000FF)  returns 0x00 (0000ms, 0443ms total)
T0A28 000:795 JLINK_WriteReg(R3, 0x00000000)  returns 0x00 (0000ms, 0443ms total)
T0A28 000:795 JLINK_WriteReg(R4, 0x00000000)  returns 0x00 (0000ms, 0443ms total)
T0A28 000:795 JLINK_WriteReg(R5, 0x00000000)  returns 0x00 (0000ms, 0443ms total)
T0A28 000:795 JLINK_WriteReg(R6, 0x00000000)  returns 0x00 (0000ms, 0443ms total)
T0A28 000:795 JLINK_WriteReg(R7, 0x00000000)  returns 0x00 (0000ms, 0443ms total)
T0A28 000:795 JLINK_WriteReg(R8, 0x00000000)  returns 0x00 (0000ms, 0443ms total)
T0A28 000:795 JLINK_WriteReg(R9, 0x20000438)  returns 0x00 (0000ms, 0443ms total)
T0A28 000:795 JLINK_WriteReg(R10, 0x00000000)  returns 0x00 (0000ms, 0443ms total)
T0A28 000:795 JLINK_WriteReg(R11, 0x00000000)  returns 0x00 (0000ms, 0443ms total)
T0A28 000:795 JLINK_WriteReg(R12, 0x00000000)  returns 0x00 (0000ms, 0443ms total)
T0A28 000:795 JLINK_WriteReg(R13 (SP), 0x20001000)  returns 0x00 (0000ms, 0443ms total)
T0A28 000:795 JLINK_WriteReg(R14, 0x20000001)  returns 0x00 (0000ms, 0443ms total)
T0A28 000:795 JLINK_WriteReg(R15 (PC), 0x200000CA)  returns 0x00 (0000ms, 0443ms total)
T0A28 000:795 JLINK_WriteReg(XPSR, 0x01000000)  returns 0x00 (0000ms, 0443ms total)
T0A28 000:795 JLINK_WriteReg(MSP, 0x20001000)  returns 0x00 (0000ms, 0443ms total)
T0A28 000:795 JLINK_WriteReg(PSP, 0x20001000)  returns 0x00 (0000ms, 0443ms total)
T0A28 000:795 JLINK_WriteReg(CFBP, 0x00000000)  returns 0x00 (0000ms, 0443ms total)
T0A28 000:795 JLINK_SetBPEx(Addr = 0x20000000, Type = 0xFFFFFFF2)  returns 0x0000000D (0000ms, 0443ms total)
T0A28 000:795 JLINK_Go() (0002ms, 0445ms total)
T0A28 000:797 JLINK_IsHalted()  returns FALSE (0001ms, 0446ms total)
T0A28 000:802 JLINK_IsHalted()  returns FALSE (0000ms, 0445ms total)
T0A28 000:804 JLINK_IsHalted() -- CPU_ReadMem(2 bytes @ 0x20000000)  returns TRUE (0001ms, 0446ms total)
T0A28 000:805 JLINK_ReadReg(R15 (PC))  returns 0x20000000 (0000ms, 0445ms total)
T0A28 000:805 JLINK_ClrBPEx(BPHandle = 0x0000000D)  returns 0x00 (0000ms, 0445ms total)
T0A28 000:805 JLINK_ReadReg(R0)  returns 0x00000000 (0000ms, 0445ms total)
T0A28 000:806 JLINK_WriteReg(R0, 0x00000001)  returns 0x00 (0000ms, 0445ms total)
T0A28 000:806 JLINK_WriteReg(R1, 0x00001000)  returns 0x00 (0000ms, 0445ms total)
T0A28 000:806 JLINK_WriteReg(R2, 0x000000FF)  returns 0x00 (0000ms, 0445ms total)
T0A28 000:806 JLINK_WriteReg(R3, 0x00000000)  returns 0x00 (0000ms, 0445ms total)
T0A28 000:806 JLINK_WriteReg(R4, 0x00000000)  returns 0x00 (0000ms, 0445ms total)
T0A28 000:806 JLINK_WriteReg(R5, 0x00000000)  returns 0x00 (0000ms, 0445ms total)
T0A28 000:806 JLINK_WriteReg(R6, 0x00000000)  returns 0x00 (0000ms, 0445ms total)
T0A28 000:806 JLINK_WriteReg(R7, 0x00000000)  returns 0x00 (0000ms, 0445ms total)
T0A28 000:806 JLINK_WriteReg(R8, 0x00000000)  returns 0x00 (0000ms, 0445ms total)
T0A28 000:806 JLINK_WriteReg(R9, 0x20000438)  returns 0x00 (0000ms, 0445ms total)
T0A28 000:806 JLINK_WriteReg(R10, 0x00000000)  returns 0x00 (0000ms, 0445ms total)
T0A28 000:806 JLINK_WriteReg(R11, 0x00000000)  returns 0x00 (0000ms, 0445ms total)
T0A28 000:806 JLINK_WriteReg(R12, 0x00000000)  returns 0x00 (0000ms, 0445ms total)
T0A28 000:806 JLINK_WriteReg(R13 (SP), 0x20001000)  returns 0x00 (0000ms, 0445ms total)
T0A28 000:806 JLINK_WriteReg(R14, 0x20000001)  returns 0x00 (0000ms, 0445ms total)
T0A28 000:806 JLINK_WriteReg(R15 (PC), 0x20000070)  returns 0x00 (0000ms, 0445ms total)
T0A28 000:806 JLINK_WriteReg(XPSR, 0x01000000)  returns 0x00 (0000ms, 0445ms total)
T0A28 000:806 JLINK_WriteReg(MSP, 0x20001000)  returns 0x00 (0000ms, 0445ms total)
T0A28 000:806 JLINK_WriteReg(PSP, 0x20001000)  returns 0x00 (0000ms, 0445ms total)
T0A28 000:806 JLINK_WriteReg(CFBP, 0x00000000)  returns 0x00 (0001ms, 0446ms total)
T0A28 000:807 JLINK_SetBPEx(Addr = 0x20000000, Type = 0xFFFFFFF2)  returns 0x0000000E (0000ms, 0446ms total)
T0A28 000:807 JLINK_Go() (0001ms, 0447ms total)
T0A28 000:808 JLINK_IsHalted() -- CPU_ReadMem(2 bytes @ 0x20000000)  returns TRUE (0004ms, 0451ms total)
T0A28 000:812 JLINK_ReadReg(R15 (PC))  returns 0x20000000 (0000ms, 0447ms total)
T0A28 000:812 JLINK_ClrBPEx(BPHandle = 0x0000000E)  returns 0x00 (0000ms, 0447ms total)
T0A28 000:812 JLINK_ReadReg(R0)  returns 0x00000000 (0000ms, 0447ms total)
T0A28 000:896 JLINK_WriteMem(0x20000000, 0x0440 Bytes, ...) - Data: 00 BE 0A E0 0D 78 2D 06 68 40 08 24 40 00 00 D3 ... -- CPU_WriteMem(1088 bytes @ 0x20000000)  returns 0x440 (0006ms, 0453ms total)
T0A28 000:902 JLINK_WriteReg(R0, 0x00000000)  returns 0x00 (0000ms, 0453ms total)
T0A28 000:902 JLINK_WriteReg(R1, 0x00B71B00)  returns 0x00 (0000ms, 0453ms total)
T0A28 000:902 JLINK_WriteReg(R2, 0x00000002)  returns 0x00 (0000ms, 0453ms total)
T0A28 000:902 JLINK_WriteReg(R3, 0x00000000)  returns 0x00 (0000ms, 0453ms total)
T0A28 000:902 JLINK_WriteReg(R4, 0x00000000)  returns 0x00 (0000ms, 0453ms total)
T0A28 000:902 JLINK_WriteReg(R5, 0x00000000)  returns 0x00 (0000ms, 0453ms total)
T0A28 000:902 JLINK_WriteReg(R6, 0x00000000)  returns 0x00 (0000ms, 0453ms total)
T0A28 000:902 JLINK_WriteReg(R7, 0x00000000)  returns 0x00 (0000ms, 0453ms total)
T0A28 000:902 JLINK_WriteReg(R8, 0x00000000)  returns 0x00 (0000ms, 0453ms total)
T0A28 000:902 JLINK_WriteReg(R9, 0x20000438)  returns 0x00 (0000ms, 0453ms total)
T0A28 000:902 JLINK_WriteReg(R10, 0x00000000)  returns 0x00 (0000ms, 0453ms total)
T0A28 000:903 JLINK_WriteReg(R11, 0x00000000)  returns 0x00 (0000ms, 0453ms total)
T0A28 000:903 JLINK_WriteReg(R12, 0x00000000)  returns 0x00 (0000ms, 0453ms total)
T0A28 000:903 JLINK_WriteReg(R13 (SP), 0x20001000)  returns 0x00 (0000ms, 0453ms total)
T0A28 000:903 JLINK_WriteReg(R14, 0x20000001)  returns 0x00 (0000ms, 0453ms total)
T0A28 000:903 JLINK_WriteReg(R15 (PC), 0x20000020)  returns 0x00 (0000ms, 0453ms total)
T0A28 000:903 JLINK_WriteReg(XPSR, 0x01000000)  returns 0x00 (0000ms, 0453ms total)
T0A28 000:903 JLINK_WriteReg(MSP, 0x20001000)  returns 0x00 (0000ms, 0453ms total)
T0A28 000:903 JLINK_WriteReg(PSP, 0x20001000)  returns 0x00 (0000ms, 0453ms total)
T0A28 000:903 JLINK_WriteReg(CFBP, 0x00000000)  returns 0x00 (0001ms, 0454ms total)
T0A28 000:904 JLINK_SetBPEx(Addr = 0x20000000, Type = 0xFFFFFFF2) -- CPU_ReadMem(2 bytes @ 0x20000000)  returns 0x0000000F (0000ms, 0454ms total)
T0A28 000:904 JLINK_Go() -- CPU_WriteMem(2 bytes @ 0x20000000) (0002ms, 0456ms total)
T0A28 000:906 JLINK_IsHalted() -- CPU_ReadMem(2 bytes @ 0x20000000)  returns TRUE (0003ms, 0459ms total)
T0A28 000:909 JLINK_ReadReg(R15 (PC))  returns 0x20000000 (0000ms, 0456ms total)
T0A28 000:909 JLINK_ClrBPEx(BPHandle = 0x0000000F)  returns 0x00 (0001ms, 0457ms total)
T0A28 000:910 JLINK_ReadReg(R0)  returns 0x00000000 (0000ms, 0457ms total)
T0A28 000:911 JLINK_WriteMem(0x20000468, 0x0200 Bytes, ...) - Data: 88 20 00 20 F1 04 00 00 25 0E 00 00 FF 04 00 00 ... -- CPU_WriteMem(512 bytes @ 0x20000468)  returns 0x200 (0002ms, 0459ms total)
T0A28 000:913 JLINK_WriteReg(R0, 0x00000000)  returns 0x00 (0000ms, 0459ms total)
T0A28 000:914 JLINK_WriteReg(R1, 0x00000200)  returns 0x00 (0000ms, 0460ms total)
T0A28 000:914 JLINK_WriteReg(R2, 0x20000468)  returns 0x00 (0001ms, 0461ms total)
T0A28 000:915 JLINK_WriteReg(R3, 0x00000000)  returns 0x00 (0000ms, 0461ms total)
T0A28 000:915 JLINK_WriteReg(R4, 0x00000000)  returns 0x00 (0000ms, 0461ms total)
T0A28 000:915 JLINK_WriteReg(R5, 0x00000000)  returns 0x00 (0000ms, 0461ms total)
T0A28 000:915 JLINK_WriteReg(R6, 0x00000000)  returns 0x00 (0000ms, 0461ms total)
T0A28 000:915 JLINK_WriteReg(R7, 0x00000000)  returns 0x00 (0000ms, 0461ms total)
T0A28 000:915 JLINK_WriteReg(R8, 0x00000000)  returns 0x00 (0000ms, 0461ms total)
T0A28 000:915 JLINK_WriteReg(R9, 0x20000438)  returns 0x00 (0000ms, 0461ms total)
T0A28 000:915 JLINK_WriteReg(R10, 0x00000000)  returns 0x00 (0000ms, 0461ms total)
T0A28 000:915 JLINK_WriteReg(R11, 0x00000000)  returns 0x00 (0000ms, 0461ms total)
T0A28 000:915 JLINK_WriteReg(R12, 0x00000000)  returns 0x00 (0001ms, 0462ms total)
T0A28 000:916 JLINK_WriteReg(R13 (SP), 0x20001000)  returns 0x00 (0000ms, 0462ms total)
T0A28 000:916 JLINK_WriteReg(R14, 0x20000001)  returns 0x00 (0000ms, 0462ms total)
T0A28 000:916 JLINK_WriteReg(R15 (PC), 0x200000DE)  returns 0x00 (0000ms, 0462ms total)
T0A28 000:916 JLINK_WriteReg(XPSR, 0x01000000)  returns 0x00 (0000ms, 0462ms total)
T0A28 000:916 JLINK_WriteReg(MSP, 0x20001000)  returns 0x00 (0000ms, 0462ms total)
T0A28 000:916 JLINK_WriteReg(PSP, 0x20001000)  returns 0x00 (0000ms, 0462ms total)
T0A28 000:916 JLINK_WriteReg(CFBP, 0x00000000)  returns 0x00 (0001ms, 0463ms total)
T0A28 000:917 JLINK_SetBPEx(Addr = 0x20000000, Type = 0xFFFFFFF2)  returns 0x00000010 (0000ms, 0463ms total)
T0A28 000:917 JLINK_Go() (0002ms, 0465ms total)
T0A28 000:919 JLINK_IsHalted()  returns FALSE (0000ms, 0465ms total)
T0A28 000:932 JLINK_IsHalted() -- CPU_ReadMem(2 bytes @ 0x20000000)  returns TRUE (0002ms, 0467ms total)
T0A28 000:934 JLINK_ReadReg(R15 (PC))  returns 0x20000000 (0001ms, 0466ms total)
T0A28 000:935 JLINK_ClrBPEx(BPHandle = 0x00000010)  returns 0x00 (0000ms, 0466ms total)
T0A28 000:935 JLINK_ReadReg(R0)  returns 0x00000000 (0000ms, 0466ms total)
T0A28 000:937 JLINK_WriteMem(0x20000468, 0x0200 Bytes, ...) - Data: 0F 05 00 00 0F 05 00 00 0F 05 00 00 0F 05 00 00 ... -- CPU_WriteMem(512 bytes @ 0x20000468)  returns 0x200 (0004ms, 0470ms total)
T0A28 000:941 JLINK_WriteReg(R0, 0x00000200)  returns 0x00 (0000ms, 0470ms total)
T0A28 000:941 JLINK_WriteReg(R1, 0x00000200)  returns 0x00 (0000ms, 0470ms total)
T0A28 000:941 JLINK_WriteReg(R2, 0x20000468)  returns 0x00 (0000ms, 0470ms total)
T0A28 000:941 JLINK_WriteReg(R3, 0x00000000)  returns 0x00 (0000ms, 0470ms total)
T0A28 000:941 JLINK_WriteReg(R4, 0x00000000)  returns 0x00 (0000ms, 0470ms total)
T0A28 000:941 JLINK_WriteReg(R5, 0x00000000)  returns 0x00 (0000ms, 0470ms total)
T0A28 000:941 JLINK_WriteReg(R6, 0x00000000)  returns 0x00 (0000ms, 0470ms total)
T0A28 000:941 JLINK_WriteReg(R7, 0x00000000)  returns 0x00 (0000ms, 0470ms total)
T0A28 000:941 JLINK_WriteReg(R8, 0x00000000)  returns 0x00 (0000ms, 0470ms total)
T0A28 000:941 JLINK_WriteReg(R9, 0x20000438)  returns 0x00 (0000ms, 0470ms total)
T0A28 000:941 JLINK_WriteReg(R10, 0x00000000)  returns 0x00 (0000ms, 0470ms total)
T0A28 000:941 JLINK_WriteReg(R11, 0x00000000)  returns 0x00 (0001ms, 0471ms total)
T0A28 000:942 JLINK_WriteReg(R12, 0x00000000)  returns 0x00 (0000ms, 0471ms total)
T0A28 000:942 JLINK_WriteReg(R13 (SP), 0x20001000)  returns 0x00 (0000ms, 0471ms total)
T0A28 000:942 JLINK_WriteReg(R14, 0x20000001)  returns 0x00 (0000ms, 0471ms total)
T0A28 000:942 JLINK_WriteReg(R15 (PC), 0x200000DE)  returns 0x00 (0000ms, 0471ms total)
T0A28 000:942 JLINK_WriteReg(XPSR, 0x01000000)  returns 0x00 (0000ms, 0471ms total)
T0A28 000:942 JLINK_WriteReg(MSP, 0x20001000)  returns 0x00 (0000ms, 0471ms total)
T0A28 000:942 JLINK_WriteReg(PSP, 0x20001000)  returns 0x00 (0000ms, 0471ms total)
T0A28 000:942 JLINK_WriteReg(CFBP, 0x00000000)  returns 0x00 (0001ms, 0472ms total)
T0A28 000:943 JLINK_SetBPEx(Addr = 0x20000000, Type = 0xFFFFFFF2)  returns 0x00000011 (0000ms, 0472ms total)
T0A28 000:943 JLINK_Go() (0002ms, 0474ms total)
T0A28 000:945 JLINK_IsHalted()  returns FALSE (0000ms, 0474ms total)
T0A28 000:947 JLINK_IsHalted()  returns FALSE (0000ms, 0474ms total)
T0A28 000:953 JLINK_IsHalted() -- CPU_ReadMem(2 bytes @ 0x20000000)  returns TRUE (0003ms, 0477ms total)
T0A28 000:956 JLINK_ReadReg(R15 (PC))  returns 0x20000000 (0000ms, 0474ms total)
T0A28 000:956 JLINK_ClrBPEx(BPHandle = 0x00000011)  returns 0x00 (0000ms, 0474ms total)
T0A28 000:956 JLINK_ReadReg(R0)  returns 0x00000000 (0000ms, 0474ms total)
T0A28 000:958 JLINK_WriteMem(0x20000468, 0x0200 Bytes, ...) - Data: FF FF FF FF FF FF FF FF FF FF FF FF FE FF FF FF ... -- CPU_WriteMem(512 bytes @ 0x20000468)  returns 0x200 (0003ms, 0477ms total)
T0A28 000:961 JLINK_WriteReg(R0, 0x00000400)  returns 0x00 (0000ms, 0477ms total)
T0A28 000:961 JLINK_WriteReg(R1, 0x00000200)  returns 0x00 (0000ms, 0477ms total)
T0A28 000:961 JLINK_WriteReg(R2, 0x20000468)  returns 0x00 (0000ms, 0477ms total)
T0A28 000:961 JLINK_WriteReg(R3, 0x00000000)  returns 0x00 (0001ms, 0478ms total)
T0A28 000:962 JLINK_WriteReg(R4, 0x00000000)  returns 0x00 (0000ms, 0478ms total)
T0A28 000:962 JLINK_WriteReg(R5, 0x00000000)  returns 0x00 (0000ms, 0478ms total)
T0A28 000:962 JLINK_WriteReg(R6, 0x00000000)  returns 0x00 (0000ms, 0478ms total)
T0A28 000:962 JLINK_WriteReg(R7, 0x00000000)  returns 0x00 (0000ms, 0478ms total)
T0A28 000:962 JLINK_WriteReg(R8, 0x00000000)  returns 0x00 (0000ms, 0478ms total)
T0A28 000:962 JLINK_WriteReg(R9, 0x20000438)  returns 0x00 (0000ms, 0478ms total)
T0A28 000:962 JLINK_WriteReg(R10, 0x00000000)  returns 0x00 (0000ms, 0478ms total)
T0A28 000:962 JLINK_WriteReg(R11, 0x00000000)  returns 0x00 (0001ms, 0479ms total)
T0A28 000:963 JLINK_WriteReg(R12, 0x00000000)  returns 0x00 (0000ms, 0479ms total)
T0A28 000:963 JLINK_WriteReg(R13 (SP), 0x20001000)  returns 0x00 (0000ms, 0479ms total)
T0A28 000:963 JLINK_WriteReg(R14, 0x20000001)  returns 0x00 (0000ms, 0479ms total)
T0A28 000:963 JLINK_WriteReg(R15 (PC), 0x200000DE)  returns 0x00 (0000ms, 0479ms total)
T0A28 000:963 JLINK_WriteReg(XPSR, 0x01000000)  returns 0x00 (0000ms, 0479ms total)
T0A28 000:963 JLINK_WriteReg(MSP, 0x20001000)  returns 0x00 (0000ms, 0479ms total)
T0A28 000:963 JLINK_WriteReg(PSP, 0x20001000)  returns 0x00 (0000ms, 0479ms total)
T0A28 000:963 JLINK_WriteReg(CFBP, 0x00000000)  returns 0x00 (0001ms, 0480ms total)
T0A28 000:964 JLINK_SetBPEx(Addr = 0x20000000, Type = 0xFFFFFFF2)  returns 0x00000012 (0000ms, 0480ms total)
T0A28 000:964 JLINK_Go() (0002ms, 0482ms total)
T0A28 000:966 JLINK_IsHalted()  returns FALSE (0000ms, 0482ms total)
T0A28 000:968 JLINK_IsHalted()  returns FALSE (0000ms, 0482ms total)
T0A28 000:970 JLINK_IsHalted()  returns FALSE (0000ms, 0482ms total)
T0A28 000:972 JLINK_IsHalted() -- CPU_ReadMem(2 bytes @ 0x20000000)  returns TRUE (0002ms, 0484ms total)
T0A28 000:975 JLINK_ReadReg(R15 (PC))  returns 0x20000000 (0000ms, 0482ms total)
